--- Terminal on /dev/cu.usbmodem0005911980641 | 115200 8-N-1
--- Available filters and text transformations: debug, default, direct, hexlify, log2file, nocontrol, printable, send_on_enter, time
--- More details at https://bit.ly/pio-monitor-filters
--- Quit: Ctrl+C | Menu: Ctrl+T | Help: Ctrl+T followed by Ctrl+H
0x44)
[SPI-RD] TX: 0x88 0x00  RX: 0x44  (ComIrqReg -> 0x44)
[SPI-RD] TX: 0x88 0x00  RX: 0x44  (ComIrqReg -> 0x44)
[SPI-RD] TX: 0x88 0x00  RX: 0x44  (ComIrqReg -> 0x44)
[SPI-RD] TX: 0x88 0x00  RX: 0x44  (ComIrqReg -> 0x44)
[SPI-RD] TX: 0x88 0x00  RX: 0x44  (ComIrqReg -> 0x44)
[SPI-RD] TX: 0x88 0x00  RX: 0x44  (ComIrqReg -> 0x44)
[SPI-RD] TX: 0x88 0x00  RX: 0x44  (ComIrqReg -> 0x44)
[SPI-RD] TX: 0x88 0x00  RX: 0x44  (ComIrqReg -> 0x44)
[SPI-RD] TX: 0x88 0x00  RX: 0x44  (ComIrqReg -> 0x44)
[SPI-RD] TX: 0x88 0x00  RX: 0x44  (ComIrqReg -> 0x44)
[SPI-RD] TX: 0x88 0x00  RX: 0x44  (ComIrqReg -> 0x44)
[SPI-RD] TX: 0x88 0x00  RX: 0x44  (ComIrqReg -> 0x44)
[SPI-RD] TX: 0x88 0x00  RX: 0x44  (ComIrqReg -> 0x44)
[SPI-RD] TX: 0x88 0x00  RX: 0x44  (ComIrqReg -> 0x44)
[SPI-RD] TX: 0x88 0x00  RX: 0x44  (ComIrqReg -> 0x44)
[SPI-RD] TX: 0x88 0x00  RX: 0x44  (ComIrqReg -> 0x44)
[SPI-RD] TX: 0x88 0x00  RX: 0x44  (ComIrqReg -> 0x44)
[SPI-RD] TX: 0x88 0x00  RX: 0x44  (ComIrqReg -> 0x44)
[SPI-RD] TX: 0x88 0x00  RX: 0x44  (ComIrqReg -> 0x44)
[SPI-RD] TX: 0x88 0x00  RX: 0x44  (ComIrqReg -> 0x44)
[SPI-RD] TX: 0x88 0x00  RX: 0x44  (ComIrqReg -> 0x44)
[SPI-RD] TX: 0x88 0x00  RX: 0x44  (ComIrqReg -> 0x44)
[SPI-RD] TX: 0x88 0x00  RX: 0x44  (ComIrqReg -> 0x44)
[SPI-RD] TX: 0x88 0x00  RX: 0x44  (ComIrqReg -> 0x44)
[SPI-RD] TX: 0x88 0x00  RX: 0x44  (ComIrqReg -> 0x44)
[Transceive] Software timeout!
=== Transceive End (SW TIMEOUT) ===
>>> No card present <<<

>>> PICC_IsNewCardPresent <<<
[SPI-WR] TX: 0x24 0x00  (TxModeReg <- 0x00)
[SPI-WR] TX: 0x26 0x00  (RxModeReg <- 0x00)
[SPI-WR] TX: 0x48 0x26  (ModWidthReg <- 0x26)
=== Transceive Start ===
[TX Data] 26 
[SPI-WR] TX: 0x02 0x00  (CommandReg <- 0x00)
[SPI-WR] TX: 0x08 0x7F  (ComIrqReg <- 0x7F)
[SPI-WR] TX: 0x14 0x80  (FIFOLevelReg <- 0x80)
[FIFO Load] 26 [SPI-WR] TX: 0x12 0x26  (FIFODataReg <- 0x26)

[SPI-WR] TX: 0x1A 0x07  (BitFramingReg <- 0x07)
[SPI-WR] TX: 0x02 0x0C  (CommandReg <- 0x0C)
[SPI-RD] TX: 0x9A 0x00  RX: 0x07  (BitFramingReg -> 0x07)
[SPI-WR] TX: 0x1A 0x87  (BitFramingReg <- 0x87)
[SPI-RD] TX: 0x88 0x00  RX: 0x44  (ComIrqReg -> 0x44)
[SPI-RD] TX: 0x88 0x00  RX: 0x44  (ComIrqReg -> 0x44)
[SPI-RD] TX: 0x88 0x00  RX: 0x44  (ComIrqReg -> 0x44)
[SPI-RD] TX: 0x88 0x00  RX: 0x44  (ComIrqReg -> 0x44)
[SPI-RD] TX: 0x88 0x00  RX: 0x44  (ComIrqReg -> 0x44)
[SPI-RD] TX: 0x88 0x00  RX: 0x44  (ComIrqReg -> 0x44)
[SPI-RD] TX: 0x88 0x00  RX: 0x44  (ComIrqReg -> 0x44)
[SPI-RD] TX: 0x88 0x00  RX: 0x44  (ComIrqReg -> 0x44)
[SPI-RD] TX: 0x88 0x00  RX: 0x44  (ComIrqReg -> 0x44)
[SPI-RD] TX: 0x88 0x00  RX: 0x44  (ComIrqReg -> 0x44)
[SPI-RD] TX: 0x88 0x00  RX: 0x44  (ComIrqReg -> 0x44)
[SPI-RD] TX: 0x88 0x00  RX: 0x44  (ComIrqReg -> 0x44)
[SPI-RD] TX: 0x88 0x00  RX: 0x44  (ComIrqReg -> 0x44)
[SPI-RD] TX: 0x88 0x00  RX: 0x44  (ComIrqReg -> 0x44)
[SPI-RD] TX: 0x88 0x00  RX: 0x44  (ComIrqReg -> 0x44)
[SPI-RD] TX: 0x88 0x00  RX: 0x44  (ComIrqReg -> 0x44)
[SPI-RD] TX: 0x88 0x00  RX: 0x44  (ComIrqReg -> 0x44)
[SPI-RD] TX: 0x88 0x00  RX: 0x44  (ComIrqReg -> 0x44)
[SPI-RD] TX: 0x88 0x00  RX: 0x44  (ComIrqReg -> 0x44)
[SPI-RD] TX: 0x88 0x00  RX: 0x44  (ComIrqReg -> 0x44)
[SPI-RD] TX: 0x88 0x00  RX: 0x44  (ComIrqReg -> 0x44)
[SPI-RD] TX: 0x88 0x00  RX: 0x44  (ComIrqReg -> 0x44)
[SPI-RD] TX: 0x88 0x00  RX: 0x44  (ComIrqReg -> 0x44)
[SPI-RD] TX: 0x88 0x00  RX: 0x44  (ComIrqReg -> 0x44)
[SPI-RD] TX: 0x88 0x00  RX: 0x44  (ComIrqReg -> 0x44)
[SPI-RD] TX: 0x88 0x00  RX: 0x44  (ComIrqReg -> 0x44)
[SPI-RD] TX: 0x88 0x00  RX: 0x44  (ComIrqReg -> 0x44)
[SPI-RD] TX: 0x88 0x00  RX: 0x44  (ComIrqReg -> 0x44)
[SPI-RD] TX: 0x88 0x00  RX: 0x44  (ComIrqReg -> 0x44)
[SPI-RD] TX: 0x88 0x00  RX: 0x44  (ComIrqReg -> 0x44)
[SPI-RD] TX: 0x88 0x00  RX: 0x44  (ComIrqReg -> 0x44)
[SPI-RD] TX: 0x88 0x00  RX: 0x44  (ComIrqReg -> 0x44)
[Transceive] Software timeout!
=== Transceive End (SW TIMEOUT) ===
>>> No card present <<<

>>> PICC_IsNewCardPresent <<<
[SPI-WR] TX: 0x24 0x00  (TxModeReg <- 0x00)
[SPI-WR] TX: 0x26 0x00  (RxModeReg <- 0x00)
[SPI-WR] TX: 0x48 0x26  (ModWidthReg <- 0x26)
=== Transceive Start ===
[TX Data] 26 
[SPI-WR] TX: 0x02 0x00  (CommandReg <- 0x00)
[SPI-WR] TX: 0x08 0x7F  (ComIrqReg <- 0x7F)
[SPI-WR] TX: 0x14 0x80  (FIFOLevelReg <- 0x80)
[FIFO Load] 26 [SPI-WR] TX: 0x12 0x26  (FIFODataReg <- 0x26)

[SPI-WR] TX: 0x1A 0x07  (BitFramingReg <- 0x07)
[SPI-WR] TX: 0x02 0x0C  (CommandReg <- 0x0C)
[SPI-RD] TX: 0x9A 0x00  RX: 0x07  (BitFramingReg -> 0x07)
[SPI-WR] TX: 0x1A 0x87  (BitFramingReg <- 0x87)
[SPI-RD] TX: 0x88 0x00  RX: 0x44  (ComIrqReg -> 0x44)
[SPI-RD] TX: 0x88 0x00  RX: 0x44  (ComIrqReg -> 0x44)
[SPI-RD] TX: 0x88 0x00  RX: 0x44  (ComIrqReg -> 0x44)
[SPI-RD] TX: 0x88 0x00  RX: 0x44  (ComIrqReg -> 0x44)
[SPI-RD] TX: 0x88 0x00  RX: 0x44  (ComIrqReg -> 0x44)
[SPI-RD] TX: 0x88 0x00  RX: 0x44  (ComIrqReg -> 0x44)
[SPI-RD] TX: 0x88 0x00  RX: 0x44  (ComIrqReg -> 0x44)
[SPI-RD] TX: 0x88 0x00  RX: 0x44  (ComIrqReg -> 0x44)
[SPI-RD] TX: 0x88 0x00  RX: 0x44  (ComIrqReg -> 0x44)
[SPI-RD] TX: 0x88 0x00  RX: 0x44  (ComIrqReg -> 0x44)
[SPI-RD] TX: 0x88 0x00  RX: 0x44  (ComIrqReg -> 0x44)
[SPI-RD] TX: 0x88 0x00  RX: 0x44  (ComIrqReg -> 0x44)
[SPI-RD] TX: 0x88 0x00  RX: 0x44  (ComIrqReg -> 0x44)
[SPI-RD] TX: 0x88 0x00  RX: 0x44  (ComIrqReg -> 0x44)
[SPI-RD] TX: 0x88 0x00  RX: 0x44  (ComIrqReg -> 0x44)
[SPI-RD] TX: 0x88 0x00  RX: 0x44  (ComIrqReg -> 0x44)
[SPI-RD] TX: 0x88 0x00  RX: 0x44  (ComIrqReg -> 0x44)
[SPI-RD] TX: 0x88 0x00  RX: 0x44  (ComIrqReg -> 0x44)
[SPI-RD] TX: 0x88 0x00  RX: 0x44  (ComIrqReg -> 0x44)
[SPI-RD] TX: 0x88 0x00  RX: 0x44  (ComIrqReg -> 0x44)
[SPI-RD] TX: 0x88 0x00  RX: 0x44  (ComIrqReg -> 0x44)
[SPI-RD] TX: 0x88 0x00  RX: 0x44  (ComIrqReg -> 0x44)
[SPI-RD] TX: 0x88 0x00  RX: 0x44  (ComIrqReg -> 0x44)
[SPI-RD] TX: 0x88 0x00  RX: 0x44  (ComIrqReg -> 0x44)
[SPI-RD] TX: 0x88 0x00  RX: 0x44  (ComIrqReg -> 0x44)
[SPI-RD] TX: 0x88 0x00  RX: 0x44  (ComIrqReg -> 0x44)
[SPI-RD] TX: 0x88 0x00  RX: 0x44  (ComIrqReg -> 0x44)
[SPI-RD] TX: 0x88 0x00  RX: 0x44  (ComIrqReg -> 0x44)
[SPI-RD] TX: 0x88 0x00  RX: 0x44  (ComIrqReg -> 0x44)
[SPI-RD] TX: 0x88 0x00  RX: 0x44  (ComIrqReg -> 0x44)
[SPI-RD] TX: 0x88 0x00  RX: 0x44  (ComIrqReg -> 0x44)
[SPI-RD] TX: 0x88 0x00  RX: 0x44  (ComIrqReg -> 0x44)
[Transceive] Software timeout!
=== Transceive End (SW TIMEOUT) ===
>>> No card present <<<

>>> PICC_IsNewCardPresent <<<
[SPI-WR] TX: 0x24 0x00  (TxModeReg <- 0x00)
[SPI-WR] TX: 0x26 0x00  (RxModeReg <- 0x00)
[SPI-WR] TX: 0x48 0x26  (ModWidthReg <- 0x26)
=== Transceive Start ===
[TX Data] 26 
[SPI-WR] TX: 0x02 0x00  (CommandReg <- 0x00)
[SPI-WR] TX: 0x08 0x7F  (ComIrqReg <- 0x7F)
[SPI-WR] TX: 0x14 0x80  (FIFOLevelReg <- 0x80)
[FIFO Load] 26 [SPI-WR] TX: 0x12 0x26  (FIFODataReg <- 0x26)

[SPI-WR] TX: 0x1A 0x07  (BitFramingReg <- 0x07)
[SPI-WR] TX: 0x02 0x0C  (CommandReg <- 0x0C)
[SPI-RD] TX: 0x9A 0x00  RX: 0x07  (BitFramingReg -> 0x07)
[SPI-WR] TX: 0x1A 0x87  (BitFramingReg <- 0x87)
[SPI-RD] TX: 0x88 0x00  RX: 0x44  (ComIrqReg -> 0x44)
[SPI-RD] TX: 0x88 0x00  RX: 0x44  (ComIrqReg -> 0x44)
[SPI-RD] TX: 0x88 0x00  RX: 0x44  (ComIrqReg -> 0x44)
[SPI-RD] TX: 0x88 0x00  RX: 0x44  (ComIrqReg -> 0x44)
[SPI-RD] TX: 0x88 0x00  RX: 0x44  (ComIrqReg -> 0x44)
[SPI-RD] TX: 0x88 0x00  RX: 0x44  (ComIrqReg -> 0x44)
[SPI-RD] TX: 0x88 0x00  RX: 0x44  (ComIrqReg -> 0x44)
[SPI-RD] TX: 0x88 0x00  RX: 0x44  (ComIrqReg -> 0x44)
[SPI-RD] TX: 0x88 0x00  RX: 0x44  (ComIrqReg -> 0x44)
[SPI-RD] TX: 0x88 0x00  RX: 0x44  (ComIrqReg -> 0x44)
[SPI-RD] TX: 0x88 0x00  RX: 0x44  (ComIrqReg -> 0x44)
[SPI-RD] TX: 0x88 0x00  RX: 0x44  (ComIrqReg -> 0x44)
[SPI-RD] TX: 0x88 0x00  RX: 0x44  (ComIrqReg -> 0x44)
[SPI-RD] TX: 0x88 0x00  RX: 0x44  (ComIrqReg -> 0x44)
[SPI-RD] TX: 0x88 0x00  RX: 0x44  (ComIrqReg -> 0x44)
[SPI-RD] TX: 0x88 0x00  RX: 0x44  (ComIrqReg -> 0x44)
[SPI-RD] TX: 0x88 0x00  RX: 0x44  (ComIrqReg -> 0x44)
[SPI-RD] TX: 0x88 0x00  RX: 0x44  (ComIrqReg -> 0x44)
[SPI-RD] TX: 0x88 0x00  RX: 0x44  (ComIrqReg -> 0x44)
[SPI-RD] TX: 0x88 0x00  RX: 0x44  (ComIrqReg -> 0x44)
[SPI-RD] TX: 0x88 0x00  RX: 0x44  (ComIrqReg -> 0x44)
[SPI-RD] TX: 0x88 0x00  RX: 0x44  (ComIrqReg -> 0x44)
[SPI-RD] TX: 0x88 0x00  RX: 0x44  (ComIrqReg -> 0x44)
[SPI-RD] TX: 0x88 0x00  RX: 0x44  (ComIrqReg -> 0x44)
[SPI-RD] TX: 0x88 0x00  RX: 0x44  (ComIrqReg -> 0x44)
[SPI-RD] TX: 0x88 0x00  RX: 0x44  (ComIrqReg -> 0x44)
[SPI-RD] TX: 0x88 0x00  RX: 0x44  (ComIrqReg -> 0x44)
[SPI-RD] TX: 0x88 0x00  RX: 0x44  (ComIrqReg -> 0x44)
[SPI-RD] TX: 0x88 0x00  RX: 0x44  (ComIrqReg -> 0x44)
[SPI-RD] TX: 0x88 0x00  RX: 0x44  (ComIrqReg -> 0x44)
[SPI-RD] TX: 0x88 0x00  RX: 0x44  (ComIrqReg -> 0x44)
[SPI-RD] TX: 0x88 0x00  RX: 0x44  (ComIrqReg -> 0x44)
[Transceive] Software timeout!
=== Transceive End (SW TIMEOUT) ===
>>> No card present <<<

>>> PICC_IsNewCardPresent <<<
[SPI-WR] TX: 0x24 0x00  (TxModeReg <- 0x00)
[SPI-WR] TX: 0x26 0x00  (RxModeReg <- 0x00)
[SPI-WR] TX: 0x48 0x26  (ModWidthReg <- 0x26)
=== Transceive Start ===
[TX Data] 26 
[SPI-WR] TX: 0x02 0x00  (CommandReg <- 0x00)
[SPI-WR] TX: 0x08 0x7F  (ComIrqReg <- 0x7F)
[SPI-WR] TX: 0x14 0x80  (FIFOLevelReg <- 0x80)
[FIFO Load] 26 [SPI-WR] TX: 0x12 0x26  (FIFODataReg <- 0x26)

[SPI-WR] TX: 0x1A 0x07  (BitFramingReg <- 0x07)
[SPI-WR] TX: 0x02 0x0C  (CommandReg <- 0x0C)
[SPI-RD] TX: 0x9A 0x00  RX: 0x07  (BitFramingReg -> 0x07)
[SPI-WR] TX: 0x1A 0x87  (BitFramingReg <- 0x87)
[SPI-RD] TX: 0x88 0x00  RX: 0x44  (ComIrqReg -> 0x44)
[SPI-RD] TX: 0x88 0x00  RX: 0x44  (ComIrqReg -> 0x44)
[SPI-RD] TX: 0x88 0x00  RX: 0x44  (ComIrqReg -> 0x44)
[SPI-RD] TX: 0x88 0x00  RX: 0x44  (ComIrqReg -> 0x44)
[SPI-RD] TX: 0x88 0x00  RX: 0x44  (ComIrqReg -> 0x44)
[SPI-RD] TX: 0x88 0x00  RX: 0x44  (ComIrqReg -> 0x44)
[SPI-RD] TX: 0x88 0x00  RX: 0x44  (ComIrqReg -> 0x44)
[SPI-RD] TX: 0x88 0x00  RX: 0x44  (ComIrqReg -> 0x44)
[SPI-RD] TX: 0x88 0x00  RX: 0x44  (ComIrqReg -> 0x44)
[SPI-RD] TX: 0x88 0x00  RX: 0x44  (ComIrqReg -> 0x44)
[SPI-RD] TX: 0x88 0x00  RX: 0x44  (ComIrqReg -> 0x44)
[SPI-RD] TX: 0x88 0x00  RX: 0x44  (ComIrqReg -> 0x44)
[SPI-RD] TX: 0x88 0x00  RX: 0x44  (ComIrqReg -> 0x44)
[SPI-RD] TX: 0x88 0x00  RX: 0x44  (ComIrqReg -> 0x44)
[SPI-RD] TX: 0x88 0x00  RX: 0x44  (ComIrqReg -> 0x44)
[SPI-RD] TX: 0x88 0x00  RX: 0x44  (ComIrqReg -> 0x44)
[SPI-RD] TX: 0x88 0x00  RX: 0x44  (ComIrqReg -> 0x44)
[SPI-RD] TX: 0x88 0x00  RX: 0x44  (ComIrqReg -> 0x44)
[SPI-RD] TX: 0x88 0x00  RX: 0x44  (ComIrqReg -> 0x44)
[SPI-RD] TX: 0x88 0x00  RX: 0x44  (ComIrqReg -> 0x44)
[SPI-RD] TX: 0x88 0x00  RX: 0x44  (ComIrqReg -> 0x44)
[SPI-RD] TX: 0x88 0x00  RX: 0x44  (ComIrqReg -> 0x44)
[SPI-RD] TX: 0x88 0x00  RX: 0x44  (ComIrqReg -> 0x44)
[SPI-RD] TX: 0x88 0x00  RX: 0x44  (ComIrqReg -> 0x44)
[SPI-RD] TX: 0x88 0x00  RX: 0x44  (ComIrqReg -> 0x44)
[SPI-RD] TX: 0x88 0x00  RX: 0x44  (ComIrqReg -> 0x44)
[SPI-RD] TX: 0x88 0x00  RX: 0x44  (ComIrqReg -> 0x44)
[SPI-RD] TX: 0x88 0x00  RX: 0x44  (ComIrqReg -> 0x44)
[SPI-RD] TX: 0x88 0x00  RX: 0x44  (ComIrqReg -> 0x44)
[SPI-RD] TX: 0x88 0x00  RX: 0x44  (ComIrqReg -> 0x44)
[SPI-RD] TX: 0x88 0x00  RX: 0x44  (ComIrqReg -> 0x44)
[SPI-RD] TX: 0x88 0x00  RX: 0x44  (ComIrqReg -> 0x44)
[Transceive] Software timeout!
=== Transceive End (SW TIMEOUT) ===
>>> No card present <<<

>>> PICC_IsNewCardPresent <<<
[SPI-WR] TX: 0x24 0x00  (TxModeReg <- 0x00)
[SPI-WR] TX: 0x26 0x00  (RxModeReg <- 0x00)
[SPI-WR] TX: 0x48 0x26  (ModWidthReg <- 0x26)
=== Transceive Start ===
[TX Data] 26 
[SPI-WR] TX: 0x02 0x00  (CommandReg <- 0x00)
[SPI-WR] TX: 0x08 0x7F  (ComIrqReg <- 0x7F)
[SPI-WR] TX: 0x14 0x80  (FIFOLevelReg <- 0x80)
[FIFO Load] 26 [SPI-WR] TX: 0x12 0x26  (FIFODataReg <- 0x26)

[SPI-WR] TX: 0x1A 0x07  (BitFramingReg <- 0x07)
[SPI-WR] TX: 0x02 0x0C  (CommandReg <- 0x0C)
[SPI-RD] TX: 0x9A 0x00  RX: 0x07  (BitFramingReg -> 0x07)
[SPI-WR] TX: 0x1A 0x87  (BitFramingReg <- 0x87)
[SPI-RD] TX: 0x88 0x00  RX: 0x44  (ComIrqReg -> 0x44)
[SPI-RD] TX: 0x88 0x00  RX: 0x44  (ComIrqReg -> 0x44)
[SPI-RD] TX: 0x88 0x00  RX: 0x44  (ComIrqReg -> 0x44)
[SPI-RD] TX: 0x88 0x00  RX: 0x44  (ComIrqReg -> 0x44)
[SPI-RD] TX: 0x88 0x00  RX: 0x44  (ComIrqReg -> 0x44)
[SPI-RD] TX: 0x88 0x00  RX: 0x44  (ComIrqReg -> 0x44)
[SPI-RD] TX: 0x88 0x00  RX: 0x44  (ComIrqReg -> 0x44)
[SPI-RD] TX: 0x88 0x00  RX: 0x44  (ComIrqReg -> 0x44)
[SPI-RD] TX: 0x88 0x00  RX: 0x44  (ComIrqReg -> 0x44)
[SPI-RD] TX: 0x88 0x00  RX: 0x44  (ComIrqReg -> 0x44)
[SPI-RD] TX: 0x88 0x00  RX: 0x44  (ComIrqReg -> 0x44)
[SPI-RD] TX: 0x88 0x00  RX: 0x44  (ComIrqReg -> 0x44)
[SPI-RD] TX: 0x88 0x00  RX: 0x44  (ComIrqReg -> 0x44)
[SPI-RD] TX: 0x88 0x00  RX: 0x44  (ComIrqReg -> 0x44)
[SPI-RD] TX: 0x88 0x00  RX: 0x44  (ComIrqReg -> 0x44)
[SPI-RD] TX: 0x88 0x00  RX: 0x44  (ComIrqReg -> 0x44)
[SPI-RD] TX: 0x88 0x00  RX: 0x44  (ComIrqReg -> 0x44)
[SPI-RD] TX: 0x88 0x00  RX: 0x44  (ComIrqReg -> 0x44)
[SPI-RD] TX: 0x88 0x00  RX: 0x44  (ComIrqReg -> 0x44)
[SPI-RD] TX: 0x88 0x00  RX: 0x44  (ComIrqReg -> 0x44)
[SPI-RD] TX: 0x88 0x00  RX: 0x44  (ComIrqReg -> 0x44)
[SPI-RD] TX: 0x88 0x00  RX: 0x44  (ComIrqReg -> 0x44)
[SPI-RD] TX: 0x88 0x00  RX: 0x44  (ComIrqReg -> 0x44)
[SPI-RD] TX: 0x88 0x00  RX: 0x44  (ComIrqReg -> 0x44)
[SPI-RD] TX: 0x88 0x00  RX: 0x44  (ComIrqReg -> 0x44)
[SPI-RD] TX: 0x88 0x00  RX: 0x44  (ComIrqReg -> 0x44)
[SPI-RD] TX: 0x88 0x00  RX: 0x44  (ComIrqReg -> 0x44)
[SPI-RD] TX: 0x88 0x00  RX: 0x44  (ComIrqReg -> 0x44)
[SPI-RD] TX: 0x88 0x00  RX: 0x44  (ComIrqReg -> 0x44)
[SPI-RD] TX: 0x88 0x00  RX: 0x44  (ComIrqReg -> 0x44)
[SPI-RD] TX: 0x88 0x00  RX: 0x44  (ComIrqReg -> 0x44)
[SPI-RD] TX: 0x88 0x00  RX: 0x44  (ComIrqReg -> 0x44)
[Transceive] Software timeout!
=== Transceive End (SW TIMEOUT) ===
>>> No card present <<<

>>> PICC_IsNewCardPresent <<<
[SPI-WR] TX: 0x24 0x00  (TxModeReg <- 0x00)
[SPI-WR] TX: 0x26 0x00  (RxModeReg <- 0x00)
[SPI-WR] TX: 0x48 0x26  (ModWidthReg <- 0x26)
=== Transceive Start ===
[TX Data] 26 
[SPI-WR] TX: 0x02 0x00  (CommandReg <- 0x00)
[SPI-WR] TX: 0x08 0x7F  (ComIrqReg <- 0x7F)
[SPI-WR] TX: 0x14 0x80  (FIFOLevelReg <- 0x80)
[FIFO Load] 26 [SPI-WR] TX: 0x12 0x26  (FIFODataReg <- 0x26)

[SPI-WR] TX: 0x1A 0x07  (BitFramingReg <- 0x07)
[SPI-WR] TX: 0x02 0x0C  (CommandReg <- 0x0C)
[SPI-RD] TX: 0x9A 0x00  RX: 0x07  (BitFramingReg -> 0x07)
[SPI-WR] TX: 0x1A 0x87  (BitFramingReg <- 0x87)
[SPI-RD] TX: 0x88 0x00  RX: 0x44  (ComIrqReg -> 0x44)
[SPI-RD] TX: 0x88 0x00  RX: 0x44  (ComIrqReg -> 0x44)
[SPI-RD] TX: 0x88 0x00  RX: 0x44  (ComIrqReg -> 0x44)
[SPI-RD] TX: 0x88 0x00  RX: 0x44  (ComIrqReg -> 0x44)
[SPI-RD] TX: 0x88 0x00  RX: 0x44  (ComIrqReg -> 0x44)
[SPI-RD] TX: 0x88 0x00  RX: 0x44  (ComIrqReg -> 0x44)
[SPI-RD] TX: 0x88 0x00  RX: 0x44  (ComIrqReg -> 0x44)
[SPI-RD] TX: 0x88 0x00  RX: 0x44  (ComIrqReg -> 0x44)
[SPI-RD] TX: 0x88 0x00  RX: 0x44  (ComIrqReg -> 0x44)
[SPI-RD] TX: 0x88 0x00  RX: 0x44  (ComIrqReg -> 0x44)
[SPI-RD] TX: 0x88 0x00  RX: 0x44  (ComIrqReg -> 0x44)
[SPI-RD] TX: 0x88 0x00  RX: 0x44  (ComIrqReg -> 0x44)
[SPI-RD] TX: 0x88 0x00  RX: 0x44  (ComIrqReg -> 0x44)
[SPI-RD] TX: 0x88 0x00  RX: 0x44  (ComIrqReg -> 0x44)
[SPI-RD] TX: 0x88 0x00  RX: 0x44  (ComIrqReg -> 0x44)
[SPI-RD] TX: 0x88 0x00  RX: 0x44  (ComIrqReg -> 0x44)
[SPI-RD] TX: 0x88 0x00  RX: 0x44  (ComIrqReg -> 0x44)
[SPI-RD] TX: 0x88 0x00  RX: 0x44  (ComIrqReg -> 0x44)
[SPI-RD] TX: 0x88 0x00  RX: 0x44  (ComIrqReg -> 0x44)
[SPI-RD] TX: 0x88 0x00  RX: 0x44  (ComIrqReg -> 0x44)
[SPI-RD] TX: 0x88 0x00  RX: 0x44  (ComIrqReg -> 0x44)
[SPI-RD] TX: 0x88 0x00  RX: 0x44  (ComIrqReg -> 0x44)
[SPI-RD] TX: 0x88 0x00  RX: 0x44  (ComIrqReg -> 0x44)
[SPI-RD] TX: 0x88 0x00  RX: 0x44  (ComIrqReg -> 0x44)
[SPI-RD] TX: 0x88 0x00  RX: 0x44  (ComIrqReg -> 0x44)
[SPI-RD] TX: 0x88 0x00  RX: 0x44  (ComIrqReg -> 0x44)
[SPI-RD] TX: 0x88 0x00  RX: 0x44  (ComIrqReg -> 0x44)
[SPI-RD] TX: 0x88 0x00  RX: 0x44  (ComIrqReg -> 0x44)
[SPI-RD] TX: 0x88 0x00  RX: 0x44  (ComIrqReg -> 0x44)
[SPI-RD] TX: 0x88 0x00  RX: 0x44  (ComIrqReg -> 0x44)
[SPI-RD] TX: 0x88 0x00  RX: 0x44  (ComIrqReg -> 0x44)
[SPI-RD] TX: 0x88 0x00  RX: 0x44  (ComIrqReg -> 0x44)
[Transceive] Software timeout!
=== Transceive End (SW TIMEOUT) ===
>>> No card present <<<

>>> PICC_IsNewCardPresent <<<
[SPI-WR] TX: 0x24 0x00  (TxModeReg <- 0x00)
[SPI-WR] TX: 0x26 0x00  (RxModeReg <- 0x00)
[SPI-WR] TX: 0x48 0x26  (ModWidthReg <- 0x26)
=== Transceive Start ===
[TX Data] 26 
[SPI-WR] TX: 0x02 0x00  (CommandReg <- 0x00)
[SPI-WR] TX: 0x08 0x7F  (ComIrqReg <- 0x7F)
[SPI-WR] TX: 0x14 0x80  (FIFOLevelReg <- 0x80)
[FIFO Load] 26 [SPI-WR] TX: 0x12 0x26  (FIFODataReg <- 0x26)

[SPI-WR] TX: 0x1A 0x07  (BitFramingReg <- 0x07)
[SPI-WR] TX: 0x02 0x0C  (CommandReg <- 0x0C)
[SPI-RD] TX: 0x9A 0x00  RX: 0x07  (BitFramingReg -> 0x07)
[SPI-WR] TX: 0x1A 0x87  (BitFramingReg <- 0x87)
[SPI-RD] TX: 0x88 0x00  RX: 0x44  (ComIrqReg -> 0x44)
[SPI-RD] TX: 0x88 0x00  RX: 0x44  (ComIrqReg -> 0x44)
[SPI-RD] TX: 0x88 0x00  RX: 0x44  (ComIrqReg -> 0x44)
[SPI-RD] TX: 0x88 0x00  RX: 0x44  (ComIrqReg -> 0x44)
[SPI-RD] TX: 0x88 0x00  RX: 0x44  (ComIrqReg -> 0x44)
[SPI-RD] TX: 0x88 0x00  RX: 0x44  (ComIrqReg -> 0x44)
[SPI-RD] TX: 0x88 0x00  RX: 0x44  (ComIrqReg -> 0x44)
[SPI-RD] TX: 0x88 0x00  RX: 0x44  (ComIrqReg -> 0x44)
[SPI-RD] TX: 0x88 0x00  RX: 0x44  (ComIrqReg -> 0x44)
[SPI-RD] TX: 0x88 0x00  RX: 0x44  (ComIrqReg -> 0x44)
[SPI-RD] TX: 0x88 0x00  RX: 0x44  (ComIrqReg -> 0x44)
[SPI-RD] TX: 0x88 0x00  RX: 0x44  (ComIrqReg -> 0x44)
[SPI-RD] TX: 0x88 0x00  RX: 0x44  (ComIrqReg -> 0x44)
[SPI-RD] TX: 0x88 0x00  RX: 0x44  (ComIrqReg -> 0x44)
[SPI-RD] TX: 0x88 0x00  RX: 0x44  (ComIrqReg -> 0x44)
[SPI-RD] TX: 0x88 0x00  RX: 0x44  (ComIrqReg -> 0x44)
[SPI-RD] TX: 0x88 0x00  RX: 0x44  (ComIrqReg -> 0x44)
[SPI-RD] TX: 0x88 0x00  RX: 0x44  (ComIrqReg -> 0x44)
[SPI-RD] TX: 0x88 0x00  RX: 0x44  (ComIrqReg -> 0x44)
[SPI-RD] TX: 0x88 0x00  RX: 0x44  (ComIrqReg -> 0x44)
[SPI-RD] TX: 0x88 0x00  RX: 0x44  (ComIrqReg -> 0x44)
[SPI-RD] TX: 0x88 0x00  RX: 0x44  (ComIrqReg -> 0x44)
[SPI-RD] TX: 0x88 0x00  RX: 0x44  (ComIrqReg -> 0x44)
[SPI-RD] TX: 0x88 0x00  RX: 0x44  (ComIrqReg -> 0x44)
[SPI-RD] TX: 0x88 0x00  RX: 0x44  (ComIrqReg -> 0x44)
[SPI-RD] TX: 0x88 0x00  RX: 0x44  (ComIrqReg -> 0x44)
[SPI-RD] TX: 0x88 0x00  RX: 0x44  (ComIrqReg -> 0x44)
[SPI-RD] TX: 0x88 0x00  RX: 0x44  (ComIrqReg -> 0x44)
[SPI-RD] TX: 0x88 0x00  RX: 0x44  (ComIrqReg -> 0x44)
[SPI-RD] TX: 0x88 0x00  RX: 0x44  (ComIrqReg -> 0x44)
[SPI-RD] TX: 0x88 0x00  RX: 0x44  (ComIrqReg -> 0x44)
[SPI-RD] TX: 0x88 0x00  RX: 0x44  (ComIrqReg -> 0x44)
[Transceive] Software timeout!
=== Transceive End (SW TIMEOUT) ===
>>> No card present <<<

>>> PICC_IsNewCardPresent <<<
[SPI-WR] TX: 0x24 0x00  (TxModeReg <- 0x00)
[SPI-WR] TX: 0x26 0x00  (RxModeReg <- 0x00)
[SPI-WR] TX: 0x48 0x26  (ModWidthReg <- 0x26)
=== Transceive Start ===
[TX Data] 26 
[SPI-WR] TX: 0x02 0x00  (CommandReg <- 0x00)
[SPI-WR] TX: 0x08 0x7F  (ComIrqReg <- 0x7F)
[SPI-WR] TX: 0x14 0x80  (FIFOLevelReg <- 0x80)
[FIFO Load] 26 [SPI-WR] TX: 0x12 0x26  (FIFODataReg <- 0x26)

[SPI-WR] TX: 0x1A 0x07  (BitFramingReg <- 0x07)
[SPI-WR] TX: 0x02 0x0C  (CommandReg <- 0x0C)
[SPI-RD] TX: 0x9A 0x00  RX: 0x07  (BitFramingReg -> 0x07)
[SPI-WR] TX: 0x1A 0x87  (BitFramingReg <- 0x87)
[SPI-RD] TX: 0x88 0x00  RX: 0x44  (ComIrqReg -> 0x44)
[SPI-RD] TX: 0x88 0x00  RX: 0x44  (ComIrqReg -> 0x44)
[SPI-RD] TX: 0x88 0x00  RX: 0x44  (ComIrqReg -> 0x44)
[SPI-RD] TX: 0x88 0x00  RX: 0x44  (ComIrqReg -> 0x44)
[SPI-RD] TX: 0x88 0x00  RX: 0x44  (ComIrqReg -> 0x44)
[SPI-RD] TX: 0x88 0x00  RX: 0x44  (ComIrqReg -> 0x44)
[SPI-RD] TX: 0x88 0x00  RX: 0x44  (ComIrqReg -> 0x44)
[SPI-RD] TX: 0x88 0x00  RX: 0x44  (ComIrqReg -> 0x44)
[SPI-RD] TX: 0x88 0x00  RX: 0x44  (ComIrqReg -> 0x44)
[SPI-RD] TX: 0x88 0x00  RX: 0x44  (ComIrqReg -> 0x44)
[SPI-RD] TX: 0x88 0x00  RX: 0x44  (ComIrqReg -> 0x44)
[SPI-RD] TX: 0x88 0x00  RX: 0x44  (ComIrqReg -> 0x44)
[SPI-RD] TX: 0x88 0x00  RX: 0x44  (ComIrqReg -> 0x44)
[SPI-RD] TX: 0x88 0x00  RX: 0x44  (ComIrqReg -> 0x44)
[SPI-RD] TX: 0x88 0x00  RX: 0x44  (ComIrqReg -> 0x44)
[SPI-RD] TX: 0x88 0x00  RX: 0x44  (ComIrqReg -> 0x44)
[SPI-RD] TX: 0x88 0x00  RX: 0x44  (ComIrqReg -> 0x44)
[SPI-RD] TX: 0x88 0x00  RX: 0x44  (ComIrqReg -> 0x44)
[SPI-RD] TX: 0x88 0x00  RX: 0x44  (ComIrqReg -> 0x44)
[SPI-RD] TX: 0x88 0x00  RX: 0x44  (ComIrqReg -> 0x44)
[SPI-RD] TX: 0x88 0x00  RX: 0x44  (ComIrqReg -> 0x44)
[SPI-RD] TX: 0x88 0x00  RX: 0x44  (ComIrqReg -> 0x44)
[SPI-RD] TX: 0x88 0x00  RX: 0x44  (ComIrqReg -> 0x44)
[SPI-RD] TX: 0x88 0x00  RX: 0x44  (ComIrqReg -> 0x44)
[SPI-RD] TX: 0x88 0x00  RX: 0x44  (ComIrqReg -> 0x44)
[SPI-RD] TX: 0x88 0x00  RX: 0x44  (ComIrqReg -> 0x44)
[SPI-RD] TX: 0x88 0x00  RX: 0x44  (ComIrqReg -> 0x44)
[SPI-RD] TX: 0x88 0x00  RX: 0x44  (ComIrqReg -> 0x44)
[SPI-RD] TX: 0x88 0x00  RX: 0x44  (ComIrqReg -> 0x44)
[SPI-RD] TX: 0x88 0x00  RX: 0x44  (ComIrqReg -> 0x44)
[SPI-RD] TX: 0x88 0x00  RX: 0x44  (ComIrqReg -> 0x44)
[SPI-RD] TX: 0x88 0x00  RX: 0x44  (ComIrqReg -> 0x44)
[Transceive] Software timeout!
=== Transceive End (SW TIMEOUT) ===
>>> No card present <<<

>>> PICC_IsNewCardPresent <<<
[SPI-WR] TX: 0x24 0x00  (TxModeReg <- 0x00)
[SPI-WR] TX: 0x26 0x00  (RxModeReg <- 0x00)
[SPI-WR] TX: 0x48 0x26  (ModWidthReg <- 0x26)
=== Transceive Start ===
[TX Data] 26 
[SPI-WR] TX: 0x02 0x00  (CommandReg <- 0x00)
[SPI-WR] TX: 0x08 0x7F  (ComIrqReg <- 0x7F)
[SPI-WR] TX: 0x14 0x80  (FIFOLevelReg <- 0x80)
[FIFO Load] 26 [SPI-WR] TX: 0x12 0x26  (FIFODataReg <- 0x26)

[SPI-WR] TX: 0x1A 0x07  (BitFramingReg <- 0x07)
[SPI-WR] TX: 0x02 0x0C  (CommandReg <- 0x0C)
[SPI-RD] TX: 0x9A 0x00  RX: 0x07  (BitFramingReg -> 0x07)
[SPI-WR] TX: 0x1A 0x87  (BitFramingReg <- 0x87)
[SPI-RD] TX: 0x88 0x00  RX: 0x44  (ComIrqReg -> 0x44)
[SPI-RD] TX: 0x88 0x00  RX: 0x44  (ComIrqReg -> 0x44)
[SPI-RD] TX: 0x88 0x00  RX: 0x44  (ComIrqReg -> 0x44)
[SPI-RD] TX: 0x88 0x00  RX: 0x44  (ComIrqReg -> 0x44)
[SPI-RD] TX: 0x88 0x00  RX: 0x44  (ComIrqReg -> 0x44)
[SPI-RD] TX: 0x88 0x00  RX: 0x44  (ComIrqReg -> 0x44)
[SPI-RD] TX: 0x88 0x00  RX: 0x44  (ComIrqReg -> 0x44)
[SPI-RD] TX: 0x88 0x00  RX: 0x44  (ComIrqReg -> 0x44)
[SPI-RD] TX: 0x88 0x00  RX: 0x44  (ComIrqReg -> 0x44)
[SPI-RD] TX: 0x88 0x00  RX: 0x44  (ComIrqReg -> 0x44)
[SPI-RD] TX: 0x88 0x00  RX: 0x44  (ComIrqReg -> 0x44)
[SPI-RD] TX: 0x88 0x00  RX: 0x44  (ComIrqReg -> 0x44)
[SPI-RD] TX: 0x88 0x00  RX: 0x44  (ComIrqReg -> 0x44)
[SPI-RD] TX: 0x88 0x00  RX: 0x44  (ComIrqReg -> 0x44)
[SPI-RD] TX: 0x88 0x00  RX: 0x44  (ComIrqReg -> 0x44)
[SPI-RD] TX: 0x88 0x00  RX: 0x44  (ComIrqReg -> 0x44)
[SPI-RD] TX: 0x88 0x00  RX: 0x44  (ComIrqReg -> 0x44)
[SPI-RD] TX: 0x88 0x00  RX: 0x44  (ComIrqReg -> 0x44)
[SPI-RD] TX: 0x88 0x00  RX: 0x44  (ComIrqReg -> 0x44)
[SPI-RD] TX: 0x88 0x00  RX: 0x44  (ComIrqReg -> 0x44)
[SPI-RD] TX: 0x88 0x00  RX: 0x44  (ComIrqReg -> 0x44)
[SPI-RD] TX: 0x88 0x00  RX: 0x44  (ComIrqReg -> 0x44)
[SPI-RD] TX: 0x88 0x00  RX: 0x44  (ComIrqReg -> 0x44)
[SPI-RD] TX: 0x88 0x00  RX: 0x44  (ComIrqReg -> 0x44)
[SPI-RD] TX: 0x88 0x00  RX: 0x44  (ComIrqReg -> 0x44)
[SPI-RD] TX: 0x88 0x00  RX: 0x44  (ComIrqReg -> 0x44)
[SPI-RD] TX: 0x88 0x00  RX: 0x44  (ComIrqReg -> 0x44)
[SPI-RD] TX: 0x88 0x00  RX: 0x44  (ComIrqReg -> 0x44)
[SPI-RD] TX: 0x88 0x00  RX: 0x44  (ComIrqReg -> 0x44)
[SPI-RD] TX: 0x88 0x00  RX: 0x44  (ComIrqReg -> 0x44)
[SPI-RD] TX: 0x88 0x00  RX: 0x44  (ComIrqReg -> 0x44)
[SPI-RD] TX: 0x88 0x00  RX: 0x44  (ComIrqReg -> 0x44)
[Transceive] Software timeout!
=== Transceive End (SW TIMEOUT) ===
>>> No card present <<<

>>> PICC_IsNewCardPresent <<<
[SPI-WR] TX: 0x24 0x00  (TxModeReg <- 0x00)
[SPI-WR] TX: 0x26 0x00  (RxModeReg <- 0x00)
[SPI-WR] TX: 0x48 0x26  (ModWidthReg <- 0x26)
=== Transceive Start ===
[TX Data] 26 
[SPI-WR] TX: 0x02 0x00  (CommandReg <- 0x00)
[SPI-WR] TX: 0x08 0x7F  (ComIrqReg <- 0x7F)
[SPI-WR] TX: 0x14 0x80  (FIFOLevelReg <- 0x80)
[FIFO Load] 26 [SPI-WR] TX: 0x12 0x26  (FIFODataReg <- 0x26)

[SPI-WR] TX: 0x1A 0x07  (BitFramingReg <- 0x07)
[SPI-WR] TX: 0x02 0x0C  (CommandReg <- 0x0C)
[SPI-RD] TX: 0x9A 0x00  RX: 0x07  (BitFramingReg -> 0x07)
[SPI-WR] TX: 0x1A 0x87  (BitFramingReg <- 0x87)
[SPI-RD] TX: 0x88 0x00  RX: 0x44  (ComIrqReg -> 0x44)
[SPI-RD] TX: 0x88 0x00  RX: 0x44  (ComIrqReg -> 0x44)
[SPI-RD] TX: 0x88 0x00  RX: 0x44  (ComIrqReg -> 0x44)
[SPI-RD] TX: 0x88 0x00  RX: 0x44  (ComIrqReg -> 0x44)
[SPI-RD] TX: 0x88 0x00  RX: 0x44  (ComIrqReg -> 0x44)
[SPI-RD] TX: 0x88 0x00  RX: 0x44  (ComIrqReg -> 0x44)
